
T09E0 000:285 SEGGER J-Link V4.96d Log File (0002ms, 0275ms total)
T09E0 000:285 DLL Compiled: Jan 29 2015 11:45:37 (0002ms, 0275ms total)
T09E0 000:285 Logging started @ 2015-05-15 20:40 (0003ms, 0276ms total)
T09E0 000:288 JLINK_SetWarnOutHandler(...) (0000ms, 0276ms total)
T09E0 000:288 JLINK_OpenEx(...)
Firmware: J-Link ARM-OB STM32 compiled Aug 22 2012 19:52:04
Hardware: V7.00
S/N: 20090928
Feature(s): RDI,FlashDL,FlashBP,JFlash,GDBFull  returns O.K. (0270ms, 0546ms total)
T09E0 000:558 JLINK_SetErrorOutHandler(...) (0000ms, 0546ms total)
T09E0 000:558 JLINK_ExecCommand("ProjectFile = "E:\WORK\Project\ReleaseTimeRelay\Code\FLY\JLinkSettings.ini"", ...)  returns 0x00 (0003ms, 0549ms total)
T09E0 000:561 JLINK_ExecCommand("Device = STM32F103CB", ...)Device "STM32F103CB" selected.  returns 0x00 (0002ms, 0551ms total)
T09E0 000:563 JLINK_ExecCommand("DisableConnectionTimeout", ...)  returns 0x01 (0000ms, 0551ms total)
T09E0 000:563 JLINK_GetHardwareVersion()  returns 0x11170 (0000ms, 0551ms total)
T09E0 000:563 JLINK_GetDLLVersion()  returns 49604 (0000ms, 0551ms total)
T09E0 000:563 JLINK_GetFirmwareString(...) (0000ms, 0551ms total)
T09E0 000:567 JLINK_GetDLLVersion()  returns 49604 (0000ms, 0551ms total)
T09E0 000:567 JLINK_GetCompileDateTime() (0000ms, 0551ms total)
T09E0 000:567 JLINK_GetFirmwareString(...) (0000ms, 0551ms total)
T09E0 000:567 JLINK_GetHardwareVersion()  returns 0x11170 (0001ms, 0552ms total)
T09E0 000:569 JLINK_TIF_Select(JLINKARM_TIF_SWD)  returns 0x00 (0001ms, 0553ms total)
T09E0 000:570 JLINK_SetSpeed(5000) (0001ms, 0554ms total)
T09E0 000:571 JLINK_GetId() >0x108 TIF>Found SWD-DP with ID 0x1BA01477 >0x0D TIF> >0x28 TIF> >0x0D TIF> >0x28 TIF> >0x0D TIF> >0x21 TIF> >0x0D TIF> >0x28 TIF> >0x0D TIF> >0x28 TIF> >0x0D TIF> >0x28 TIF> >0x0D TIF> >0x21 TIF> >0x0D TIF> >0x21 TIF> >0x0D TIF> >0x28 TIF> >0x0D TIF> >0x21 TIF> >0x0D TIF> >0x21 TIF> >0x108 TIF>Found SWD-DP with ID 0x1BA01477 >0x0D TIF> >0x21 TIF> >0x0D TIF> >0x28 TIF> >0x0D TIF> >0x28 TIF> >0x0D TIF> >0x21 TIF> >0x0D TIF> >0x28 TIF> >0x0D TIF> >0x21 TIF> >0x0D TIF> >0x21 TIF>
 >0x0D TIF> >0x21 TIF> >0x0D TIF> >0x21 TIF> >0x0D TIF> >0x28 TIF> >0x0D TIF> >0x28 TIF> >0x0D TIF> >0x21 TIF> >0x0D TIF> >0x28 TIF> >0x0D TIF> >0x28 TIF> >0x0D TIF> >0x28 TIF> >0x0D TIF> >0x21 TIF> >0x0D TIF> >0x21 TIF> >0x0D TIF> >0x28 TIF> >0x0D TIF> >0x21 TIF> >0x0D TIF> >0x21 TIF>Found Cortex-M3 r1p1, Little endian. -- CPU_WriteMem(4 bytes @ 0xE0002000) -- CPU_ReadMem(4 bytes @ 0xE000EDF0) -- CPU_ReadMem(4 bytes @ 0xE0002000)FPUnit: 6 code (BP) slots and 2 literal slots
 -- CPU_ReadMem(4 bytes @ 0xE000EDFC) -- CPU_ReadMem(4 bytes @ 0xE0001000) -- CPU_WriteMem(4 bytes @ 0xE0001000) -- CPU_ReadMem(4 bytes @ 0xE000ED88) -- CPU_WriteMem(4 bytes @ 0xE000ED88) -- CPU_ReadMem(4 bytes @ 0xE000ED88) -- CPU_WriteMem(4 bytes @ 0xE000ED88) -- CPU_ReadMem(4 bytes @ 0xE00FF010)TPIU fitted. -- CPU_ReadMem(4 bytes @ 0xE00FF014) -- CPU_ReadMem(4 bytes @ 0xE00FF018) >0x0D TIF> >0x21 TIF>  returns 0x1BA01477 (0049ms, 0603ms total)
T09E0 000:620 JLINK_GetDLLVersion()  returns 49604 (0000ms, 0603ms total)
T09E0 000:620 JLINK_CORE_GetFound()  returns 0x30000FF (0000ms, 0603ms total)
T09E0 000:620 JLINK_GetDebugInfo(0x100) -- Value=0xE00FF003  returns 0x00 (0000ms, 0603ms total)
T09E0 000:621 JLINK_ReadMem (0xE00FF000, 0x0020 Bytes, ...) -- CPU is running -- CPU_ReadMem(32 bytes @ 0xE00FF000) - Data: 03 F0 F0 FF 03 20 F0 FF 03 30 F0 FF 03 10 F0 FF ...  returns 0x00 (0001ms, 0604ms total)
T09E0 000:622 JLINK_ReadMem (0xE000EFF0, 0x0010 Bytes, ...) -- CPU is running -- CPU_ReadMem(16 bytes @ 0xE000EFF0) - Data: 0D 00 00 00 E0 00 00 00 05 00 00 00 B1 00 00 00  returns 0x00 (0002ms, 0606ms total)
T09E0 000:624 JLINK_ReadMem (0xE000EFD0, 0x0020 Bytes, ...) -- CPU is running -- CPU_ReadMem(32 bytes @ 0xE000EFD0) - Data: 04 00 00 00 00 00 00 00 00 00 00 00 00 00 00 00 ...  returns 0x00 (0001ms, 0607ms total)
T09E0 000:625 JLINK_ReadMem (0xE0001FF0, 0x0010 Bytes, ...) -- CPU is running -- CPU_ReadMem(16 bytes @ 0xE0001FF0) - Data: 0D 00 00 00 E0 00 00 00 05 00 00 00 B1 00 00 00  returns 0x00 (0001ms, 0608ms total)
T09E0 000:626 JLINK_ReadMem (0xE0001FD0, 0x0020 Bytes, ...) -- CPU is running -- CPU_ReadMem(32 bytes @ 0xE0001FD0) - Data: 04 00 00 00 00 00 00 00 00 00 00 00 00 00 00 00 ...  returns 0x00 (0002ms, 0610ms total)
T09E0 000:628 JLINK_ReadMem (0xE0002FF0, 0x0010 Bytes, ...) -- CPU is running -- CPU_ReadMem(16 bytes @ 0xE0002FF0) - Data: 0D 00 00 00 E0 00 00 00 05 00 00 00 B1 00 00 00  returns 0x00 (0001ms, 0611ms total)
T09E0 000:629 JLINK_ReadMem (0xE0002FD0, 0x0020 Bytes, ...) -- CPU is running -- CPU_ReadMem(32 bytes @ 0xE0002FD0) - Data: 04 00 00 00 00 00 00 00 00 00 00 00 00 00 00 00 ...  returns 0x00 (0001ms, 0612ms total)
T09E0 000:630 JLINK_ReadMem (0xE0000FF0, 0x0010 Bytes, ...) -- CPU is running -- CPU_ReadMem(16 bytes @ 0xE0000FF0) - Data: 0D 00 00 00 E0 00 00 00 05 00 00 00 B1 00 00 00  returns 0x00 (0001ms, 0613ms total)
T09E0 000:631 JLINK_ReadMem (0xE0000FD0, 0x0020 Bytes, ...) -- CPU is running -- CPU_ReadMem(32 bytes @ 0xE0000FD0) - Data: 04 00 00 00 00 00 00 00 00 00 00 00 00 00 00 00 ...  returns 0x00 (0001ms, 0614ms total)
T09E0 000:632 JLINK_ReadMem (0xE0040FF0, 0x0010 Bytes, ...) -- CPU is running -- CPU_ReadMem(16 bytes @ 0xE0040FF0) - Data: 0D 00 00 00 90 00 00 00 05 00 00 00 B1 00 00 00  returns 0x00 (0002ms, 0616ms total)
T09E0 000:634 JLINK_ReadMem (0xE0040FD0, 0x0020 Bytes, ...) -- CPU is running -- CPU_ReadMem(32 bytes @ 0xE0040FD0) - Data: 04 00 00 00 00 00 00 00 00 00 00 00 00 00 00 00 ...  returns 0x00 (0001ms, 0617ms total)
T09E0 000:635 JLINK_ReadMemU32(0xE000ED00, 0x0001 Items, ...) -- CPU is running -- CPU_ReadMem(4 bytes @ 0xE000ED00) - Data: 31 C2 1F 41  returns 0x01 (0001ms, 0618ms total)
T09E0 000:636 JLINK_SetResetType(JLINKARM_RESET_TYPE_NORMAL)  returns JLINKARM_RESET_TYPE_NORMAL (0000ms, 0618ms total)
T09E0 000:636 JLINK_Reset() -- CPU is running -- CPU_WriteMem(4 bytes @ 0xE000EDF0) -- CPU is running -- CPU_WriteMem(4 bytes @ 0xE000EDFC) >0x35 TIF> -- CPU is running -- CPU_WriteMem(4 bytes @ 0xE000ED0C) -- CPU is running -- CPU_ReadMem(4 bytes @ 0xE000EDF0) -- CPU is running -- CPU_ReadMem(4 bytes @ 0xE000EDF0) -- CPU is running -- CPU_WriteMem(4 bytes @ 0xE000EDF0) -- CPU is running -- CPU_WriteMem(4 bytes @ 0xE000EDFC) -- CPU is running -- CPU_ReadMem(4 bytes @ 0xE000EDF0)
 -- CPU_WriteMem(4 bytes @ 0xE0002000) -- CPU_ReadMem(4 bytes @ 0xE000EDFC) -- CPU_ReadMem(4 bytes @ 0xE0001000) (0024ms, 0642ms total)
T09E0 000:660 JLINK_ReadReg(R15 (PC))  returns 0x08000234 (0000ms, 0642ms total)
T09E0 000:660 JLINK_ReadReg(XPSR)  returns 0x01000000 (0000ms, 0642ms total)
T09E0 000:660 JLINK_Halt()  returns 0x00 (0000ms, 0642ms total)
T09E0 000:660 JLINK_IsHalted()  returns TRUE (0000ms, 0642ms total)
T09E0 000:660 JLINK_ReadMemU32(0xE000EDF0, 0x0001 Items, ...) -- CPU_ReadMem(4 bytes @ 0xE000EDF0) - Data: 03 00 03 00  returns 0x01 (0001ms, 0643ms total)
T09E0 000:662 JLINK_WriteU32(0xE000EDF0, 0xA05F0003) -- CPU_WriteMem(4 bytes @ 0xE000EDF0)  returns 0x00 (0001ms, 0645ms total)
T09E0 000:663 JLINK_WriteU32(0xE000EDFC, 0x01000000) -- CPU_WriteMem(4 bytes @ 0xE000EDFC)  returns 0x00 (0001ms, 0646ms total)
T09E0 000:665 JLINK_GetHWStatus(...)  returns 0x00 (0000ms, 0646ms total)
T09E0 000:666 JLINK_GetNumBPUnits(Type = 0xFFFFFF00)  returns 0x06 (0000ms, 0646ms total)
T09E0 000:666 JLINK_GetNumBPUnits(Type = 0xF0)  returns 0x2000 (0001ms, 0647ms total)
T09E0 000:667 JLINK_GetNumWPUnits()  returns 0x04 (0000ms, 0647ms total)
T09E0 000:668 JLINK_GetSpeed()  returns 0xFA0 (0000ms, 0647ms total)
T09E0 000:668 JLINK_ReadMemU32(0xE000E004, 0x0001 Items, ...) -- CPU_ReadMem(4 bytes @ 0xE000E004) - Data: 01 00 00 00  returns 0x01 (0002ms, 0649ms total)
T09E0 000:670 JLINK_ReadMemU32(0xE000E004, 0x0001 Items, ...) -- CPU_ReadMem(4 bytes @ 0xE000E004) - Data: 01 00 00 00  returns 0x01 (0000ms, 0649ms total)
T09E0 000:670 JLINK_WriteMem(0xE0001000, 0x001C Bytes, ...) - Data: 01 00 00 00 00 00 00 00 00 00 00 00 00 00 00 00 ... -- CPU_WriteMem(28 bytes @ 0xE0001000)  returns 0x1C (0002ms, 0651ms total)
T09E0 000:672 JLINK_ReadMem (0xE0001000, 0x001C Bytes, ...) -- CPU_ReadMem(28 bytes @ 0xE0001000) - Data: 01 00 00 40 00 00 00 00 00 00 00 00 00 00 00 00 ...  returns 0x00 (0002ms, 0653ms total)
T09E0 000:674 JLINK_ReadReg(R15 (PC))  returns 0x08000234 (0000ms, 0653ms total)
T09E0 000:674 JLINK_ReadReg(XPSR)  returns 0x01000000 (0000ms, 0653ms total)
T09E0 000:894 JLINK_SetResetType(JLINKARM_RESET_TYPE_NORMAL)  returns JLINKARM_RESET_TYPE_NORMAL (0000ms, 0653ms total)
T09E0 000:894 JLINK_Reset() -- CPU_WriteMem(4 bytes @ 0xE000EDF0) -- CPU_WriteMem(4 bytes @ 0xE000EDFC) >0x35 TIF> -- CPU_WriteMem(4 bytes @ 0xE000ED0C) -- CPU_ReadMem(4 bytes @ 0xE000EDF0) -- CPU_ReadMem(4 bytes @ 0xE000EDF0) -- CPU_WriteMem(4 bytes @ 0xE000EDF0) -- CPU_WriteMem(4 bytes @ 0xE000EDFC) -- CPU is running -- CPU_ReadMem(4 bytes @ 0xE000EDF0) -- CPU_WriteMem(4 bytes @ 0xE0002000) -- CPU_ReadMem(4 bytes @ 0xE000EDFC) -- CPU_ReadMem(4 bytes @ 0xE0001000) (0024ms, 0677ms total)
T09E0 000:918 JLINK_ReadReg(R15 (PC))  returns 0x08000234 (0000ms, 0677ms total)
T09E0 000:918 JLINK_ReadReg(XPSR)  returns 0x01000000 (0000ms, 0677ms total)
T09E0 000:918 JLINK_ReadMemU32(0xE0001004, 0x0001 Items, ...) -- CPU_ReadMem(4 bytes @ 0xE0001004) - Data: E2 0D 00 00  returns 0x01 (0001ms, 0678ms total)
T09E0 001:226 JLINK_ReadMem (0x08000234, 0x003C Bytes, ...) -- CPU_ReadMem(128 bytes @ 0x08000200) -- Updating C cache (128 bytes @ 0x08000200) -- Read from C cache (60 bytes @ 0x08000234) - Data: 09 48 80 47 09 48 00 47 FE E7 FE E7 FE E7 FE E7 ...  returns 0x00 (0003ms, 0681ms total)
T09E0 002:553 JLINK_ReadMem (0x00000000, 0x0170 Bytes, ...) -- CPU_ReadMem(4 bytes @ 0x00000004) -- CPU_ReadMem(384 bytes @ 0x08000000) -- Updating C cache (384 bytes @ 0x08000000) -- Read from C cache (368 bytes @ 0x08000000) - Data: C0 0C 00 20 35 02 00 08 3D 02 00 08 3F 02 00 08 ...  returns 0x00 (0007ms, 0688ms total)
T26A8 004:535 JLINK_SetBPEx(Addr = 0x08002D44, Type = 0xFFFFFFF2)  returns 0x00000001 (0001ms, 0689ms total)
T26A8 004:536 JLINK_Go() -- CPU_WriteMem(4 bytes @ 0xE0002000) -- CPU_WriteMem(4 bytes @ 0xE0002008) -- CPU_WriteMem(4 bytes @ 0xE000200C) -- CPU_WriteMem(4 bytes @ 0xE0002010) -- CPU_WriteMem(4 bytes @ 0xE0002014) -- CPU_WriteMem(4 bytes @ 0xE0002018) -- CPU_WriteMem(4 bytes @ 0xE000201C) -- CPU_WriteMem(4 bytes @ 0xE0001004) (0006ms, 0695ms total)
T26A8 004:643 JLINK_IsHalted()  returns TRUE (0003ms, 0698ms total)
T26A8 004:646 JLINK_Halt()  returns 0x00 (0001ms, 0696ms total)
T26A8 004:647 JLINK_IsHalted()  returns TRUE (0000ms, 0696ms total)
T26A8 004:647 JLINK_IsHalted()  returns TRUE (0000ms, 0696ms total)
T26A8 004:647 JLINK_IsHalted()  returns TRUE (0000ms, 0696ms total)
T26A8 004:647 JLINK_ReadReg(R15 (PC))  returns 0x08002D44 (0000ms, 0696ms total)
T26A8 004:647 JLINK_ReadReg(XPSR)  returns 0x61000000 (0000ms, 0696ms total)
T26A8 004:647 JLINK_ClrBPEx(BPHandle = 0x00000001)  returns 0x00 (0001ms, 0697ms total)
T26A8 004:648 JLINK_ReadMemU32(0xE000ED30, 0x0001 Items, ...) -- CPU_ReadMem(4 bytes @ 0xE000ED30) - Data: 03 00 00 00  returns 0x01 (0001ms, 0698ms total)
T26A8 004:649 JLINK_ReadMemU32(0xE0001028, 0x0001 Items, ...) -- CPU_ReadMem(4 bytes @ 0xE0001028) - Data: 00 00 00 00  returns 0x01 (0060ms, 0758ms total)
T26A8 004:709 JLINK_ReadMemU32(0xE0001038, 0x0001 Items, ...) -- CPU_ReadMem(4 bytes @ 0xE0001038) - Data: 00 02 00 00  returns 0x01 (0001ms, 0759ms total)
T26A8 004:710 JLINK_ReadMemU32(0xE0001048, 0x0001 Items, ...) -- CPU_ReadMem(4 bytes @ 0xE0001048) - Data: 00 00 00 00  returns 0x01 (0001ms, 0760ms total)
T26A8 004:711 JLINK_ReadMemU32(0xE0001058, 0x0001 Items, ...) -- CPU_ReadMem(4 bytes @ 0xE0001058) - Data: 00 00 00 00  returns 0x01 (0001ms, 0761ms total)
T26A8 004:712 JLINK_ReadReg(R0)  returns 0x200006C0 (0001ms, 0762ms total)
T26A8 004:713 JLINK_ReadReg(R1)  returns 0x200008C0 (0000ms, 0762ms total)
T26A8 004:713 JLINK_ReadReg(R2)  returns 0x200008C0 (0000ms, 0762ms total)
T26A8 004:713 JLINK_ReadReg(R3)  returns 0x200008C0 (0000ms, 0762ms total)
T26A8 004:713 JLINK_ReadReg(R4)  returns 0x00000000 (0001ms, 0763ms total)
T26A8 004:714 JLINK_ReadReg(R5)  returns 0x2000065C (0000ms, 0763ms total)
T26A8 004:714 JLINK_ReadReg(R6)  returns 0x00000000 (0000ms, 0763ms total)
T26A8 004:714 JLINK_ReadReg(R7)  returns 0x00000000 (0000ms, 0763ms total)
T26A8 004:714 JLINK_ReadReg(R8)  returns 0x00000000 (0000ms, 0763ms total)
T26A8 004:714 JLINK_ReadReg(R9)  returns 0x20000160 (0000ms, 0763ms total)
T26A8 004:714 JLINK_ReadReg(R10)  returns 0x08003320 (0000ms, 0763ms total)
T26A8 004:714 JLINK_ReadReg(R11)  returns 0x00000000 (0001ms, 0764ms total)
T26A8 004:715 JLINK_ReadReg(R12)  returns 0x2000069C (0000ms, 0764ms total)
T26A8 004:715 JLINK_ReadReg(R13 (SP))  returns 0x20000CC0 (0000ms, 0764ms total)
T26A8 004:715 JLINK_ReadReg(R14)  returns 0x08000223 (0000ms, 0764ms total)
T26A8 004:715 JLINK_ReadReg(R15 (PC))  returns 0x08002D44 (0000ms, 0764ms total)
T26A8 004:715 JLINK_ReadReg(XPSR)  returns 0x61000000 (0000ms, 0764ms total)
T26A8 004:716 JLINK_ReadReg(MSP)  returns 0x20000CC0 (0000ms, 0765ms total)
T26A8 004:716 JLINK_ReadReg(PSP)  returns 0x20000800 (0000ms, 0765ms total)
T26A8 004:716 JLINK_ReadReg(CFBP)  returns 0x00000000 (0000ms, 0765ms total)
T09E0 004:812 JLINK_ReadMemU32(0xE0001004, 0x0001 Items, ...) -- CPU_ReadMem(4 bytes @ 0xE0001004) - Data: 78 1B 00 00  returns 0x01 (0001ms, 0766ms total)
T09E0 004:817 JLINK_ReadMem (0x08002D44, 0x003C Bytes, ...) -- CPU_ReadMem(64 bytes @ 0x08002D40) -- Updating C cache (64 bytes @ 0x08002D40) -- Read from C cache (60 bytes @ 0x08002D44) - Data: FF F7 3E FF 0E E0 08 A1 0A 48 FF F7 F9 FD 0A A1 ...  returns 0x00 (0002ms, 0768ms total)
T09E0 004:850 JLINK_ReadMem (0x08002BFE, 0x0002 Bytes, ...) -- CPU_ReadMem(64 bytes @ 0x08002BC0) -- Updating C cache (64 bytes @ 0x08002BC0) -- Read from C cache (2 bytes @ 0x08002BFE) - Data: 10 A1  returns 0x00 (0002ms, 0770ms total)
T09E0 004:852 JLINK_ReadMem (0x08002C00, 0x003C Bytes, ...) -- CPU_ReadMem(64 bytes @ 0x08002C00) -- Updating C cache (64 bytes @ 0x08002C00) -- Read from C cache (60 bytes @ 0x08002C00) - Data: 0E 48 FF F7 9F FE 4F F4 FA 70 00 F0 69 F8 10 BD ...  returns 0x00 (0002ms, 0772ms total)
T26A8 009:036 JLINK_Step() -- Read from C cache (2 bytes @ 0x08002D44) -- Read from C cache (2 bytes @ 0x08002D46) -- Simulated  returns 0x00 (0001ms, 0773ms total)
T26A8 009:037 JLINK_ReadReg(R15 (PC))  returns 0x08002BC4 (0001ms, 0774ms total)
T26A8 009:038 JLINK_ReadReg(XPSR)  returns 0x61000000 (0000ms, 0774ms total)
T26A8 009:038 JLINK_ReadReg(R0)  returns 0x200006C0 (0000ms, 0774ms total)
T26A8 009:038 JLINK_ReadReg(R1)  returns 0x200008C0 (0000ms, 0774ms total)
T26A8 009:038 JLINK_ReadReg(R2)  returns 0x200008C0 (0000ms, 0774ms total)
T26A8 009:038 JLINK_ReadReg(R3)  returns 0x200008C0 (0000ms, 0774ms total)
T26A8 009:038 JLINK_ReadReg(R4)  returns 0x00000000 (0001ms, 0775ms total)
T26A8 009:039 JLINK_ReadReg(R5)  returns 0x2000065C (0000ms, 0775ms total)
T26A8 009:039 JLINK_ReadReg(R6)  returns 0x00000000 (0000ms, 0775ms total)
T26A8 009:039 JLINK_ReadReg(R7)  returns 0x00000000 (0000ms, 0775ms total)
T26A8 009:039 JLINK_ReadReg(R8)  returns 0x00000000 (0000ms, 0775ms total)
T26A8 009:039 JLINK_ReadReg(R9)  returns 0x20000160 (0000ms, 0775ms total)
T26A8 009:039 JLINK_ReadReg(R10)  returns 0x08003320 (0001ms, 0776ms total)
T26A8 009:040 JLINK_ReadReg(R11)  returns 0x00000000 (0000ms, 0776ms total)
T26A8 009:040 JLINK_ReadReg(R12)  returns 0x2000069C (0000ms, 0776ms total)
T26A8 009:040 JLINK_ReadReg(R13 (SP))  returns 0x20000CC0 (0000ms, 0776ms total)
T26A8 009:040 JLINK_ReadReg(R14)  returns 0x08002D49 (0000ms, 0776ms total)
T26A8 009:040 JLINK_ReadReg(R15 (PC))  returns 0x08002BC4 (0001ms, 0777ms total)
T26A8 009:041 JLINK_ReadReg(XPSR)  returns 0x61000000 (0000ms, 0777ms total)
T26A8 009:041 JLINK_ReadReg(MSP)  returns 0x20000CC0 (0000ms, 0777ms total)
T26A8 009:041 JLINK_ReadReg(PSP)  returns 0x20000800 (0000ms, 0777ms total)
T26A8 009:041 JLINK_ReadReg(CFBP)  returns 0x00000000 (0000ms, 0777ms total)
T09E0 009:048 JLINK_ReadMemU32(0xE0001004, 0x0001 Items, ...) - Data: 78 1B 00 00  returns 0x01 (0000ms, 0777ms total)
T09E0 009:052 JLINK_ReadMem (0x08002BC4, 0x003C Bytes, ...) -- Read from C cache (60 bytes @ 0x08002BC4) - Data: 10 B5 00 F0 61 F8 FF F7 B0 FC 4F F4 E1 30 00 F0 ...  returns 0x00 (0000ms, 0777ms total)
T26A8 010:586 JLINK_Step() -- Read from C cache (2 bytes @ 0x08002BC4) -- CPU_WriteMem(8 bytes @ 0x20000CB8) -- Simulated  returns 0x00 (0003ms, 0780ms total)
T26A8 010:589 JLINK_ReadReg(R15 (PC))  returns 0x08002BC6 (0000ms, 0780ms total)
T26A8 010:589 JLINK_ReadReg(XPSR)  returns 0x61000000 (0000ms, 0780ms total)
T26A8 010:589 JLINK_ReadReg(R0)  returns 0x200006C0 (0000ms, 0780ms total)
T26A8 010:590 JLINK_ReadReg(R1)  returns 0x200008C0 (0000ms, 0781ms total)
T26A8 010:590 JLINK_ReadReg(R2)  returns 0x200008C0 (0000ms, 0781ms total)
T26A8 010:590 JLINK_ReadReg(R3)  returns 0x200008C0 (0000ms, 0781ms total)
T26A8 010:590 JLINK_ReadReg(R4)  returns 0x00000000 (0001ms, 0782ms total)
T26A8 010:591 JLINK_ReadReg(R5)  returns 0x2000065C (0000ms, 0782ms total)
T26A8 010:591 JLINK_ReadReg(R6)  returns 0x00000000 (0000ms, 0782ms total)
T26A8 010:591 JLINK_ReadReg(R7)  returns 0x00000000 (0000ms, 0782ms total)
T26A8 010:591 JLINK_ReadReg(R8)  returns 0x00000000 (0001ms, 0783ms total)
T26A8 010:592 JLINK_ReadReg(R9)  returns 0x20000160 (0000ms, 0783ms total)
T26A8 010:592 JLINK_ReadReg(R10)  returns 0x08003320 (0000ms, 0783ms total)
T26A8 010:592 JLINK_ReadReg(R11)  returns 0x00000000 (0000ms, 0783ms total)
T26A8 010:592 JLINK_ReadReg(R12)  returns 0x2000069C (0001ms, 0784ms total)
T26A8 010:593 JLINK_ReadReg(R13 (SP))  returns 0x20000CB8 (0000ms, 0784ms total)
T26A8 010:593 JLINK_ReadReg(R14)  returns 0x08002D49 (0000ms, 0784ms total)
T26A8 010:593 JLINK_ReadReg(R15 (PC))  returns 0x08002BC6 (0000ms, 0784ms total)
T26A8 010:593 JLINK_ReadReg(XPSR)  returns 0x61000000 (0001ms, 0785ms total)
T26A8 010:594 JLINK_ReadReg(MSP)  returns 0x20000CB8 (0000ms, 0785ms total)
T26A8 010:594 JLINK_ReadReg(PSP)  returns 0x20000800 (0000ms, 0785ms total)
T26A8 010:594 JLINK_ReadReg(CFBP)  returns 0x00000000 (0000ms, 0785ms total)
T09E0 010:597 JLINK_ReadMem (0x20000CBC, 0x0004 Bytes, ...) -- CPU_ReadMem(64 bytes @ 0x20000C80) -- Updating C cache (64 bytes @ 0x20000C80) -- Read from C cache (4 bytes @ 0x20000CBC) - Data: 49 2D 00 08  returns 0x00 (0002ms, 0787ms total)
T09E0 010:599 JLINK_ReadMem (0x20000CB8, 0x0004 Bytes, ...) -- Read from C cache (4 bytes @ 0x20000CB8) - Data: 00 00 00 00  returns 0x00 (0000ms, 0787ms total)
T09E0 010:599 JLINK_ReadMemU32(0xE0001004, 0x0001 Items, ...) - Data: 78 1B 00 00  returns 0x01 (0001ms, 0788ms total)
T09E0 010:603 JLINK_ReadMem (0x08002BC6, 0x0002 Bytes, ...) -- Read from C cache (2 bytes @ 0x08002BC6) - Data: 00 F0  returns 0x00 (0000ms, 0788ms total)
T09E0 010:603 JLINK_ReadMem (0x08002BC8, 0x0038 Bytes, ...) -- Read from C cache (56 bytes @ 0x08002BC8) - Data: 61 F8 FF F7 B0 FC 4F F4 E1 30 00 F0 61 F9 4F F4 ...  returns 0x00 (0000ms, 0788ms total)
T09E0 010:603 JLINK_ReadMem (0x08002C00, 0x0004 Bytes, ...) -- Read from C cache (4 bytes @ 0x08002C00) - Data: 0E 48 FF F7  returns 0x00 (0001ms, 0789ms total)
T26A8 011:366 JLINK_SetBPEx(Addr = 0x08002BCA, Type = 0xFFFFFFF2)  returns 0x00000002 (0000ms, 0789ms total)
T26A8 011:367 JLINK_Go() -- CPU_WriteMem(4 bytes @ 0xE0002000) -- CPU_WriteMem(4 bytes @ 0xE0002008) -- CPU_WriteMem(4 bytes @ 0xE0001004) (0005ms, 0795ms total)
T26A8 011:473 JLINK_IsHalted()  returns TRUE (0004ms, 0799ms total)
T26A8 011:477 JLINK_Halt()  returns 0x00 (0000ms, 0795ms total)
T26A8 011:477 JLINK_IsHalted()  returns TRUE (0000ms, 0795ms total)
T26A8 011:477 JLINK_IsHalted()  returns TRUE (0000ms, 0795ms total)
T26A8 011:478 JLINK_IsHalted()  returns TRUE (0000ms, 0795ms total)
T26A8 011:478 JLINK_ReadReg(R15 (PC))  returns 0x08002BCA (0000ms, 0795ms total)
T26A8 011:478 JLINK_ReadReg(XPSR)  returns 0x21000000 (0000ms, 0795ms total)
T26A8 011:478 JLINK_ClrBPEx(BPHandle = 0x00000002)  returns 0x00 (0000ms, 0795ms total)
T26A8 011:478 JLINK_ReadMemU32(0xE000ED30, 0x0001 Items, ...) -- CPU_ReadMem(4 bytes @ 0xE000ED30) - Data: 03 00 00 00  returns 0x01 (0001ms, 0796ms total)
T26A8 011:479 JLINK_ReadMemU32(0xE0001028, 0x0001 Items, ...) -- CPU_ReadMem(4 bytes @ 0xE0001028) - Data: 00 00 00 00  returns 0x01 (0001ms, 0797ms total)
T26A8 011:480 JLINK_ReadMemU32(0xE0001038, 0x0001 Items, ...) -- CPU_ReadMem(4 bytes @ 0xE0001038) - Data: 00 02 00 00  returns 0x01 (0001ms, 0798ms total)
T26A8 011:481 JLINK_ReadMemU32(0xE0001048, 0x0001 Items, ...) -- CPU_ReadMem(4 bytes @ 0xE0001048) - Data: 00 00 00 00  returns 0x01 (0002ms, 0800ms total)
T26A8 011:483 JLINK_ReadMemU32(0xE0001058, 0x0001 Items, ...) -- CPU_ReadMem(4 bytes @ 0xE0001058) - Data: 00 00 00 00  returns 0x01 (0001ms, 0801ms total)
T26A8 011:484 JLINK_ReadReg(R0)  returns 0x00000003 (0000ms, 0801ms total)
T26A8 011:484 JLINK_ReadReg(R1)  returns 0xE000E000 (0000ms, 0801ms total)
T26A8 011:484 JLINK_ReadReg(R2)  returns 0xE000E000 (0000ms, 0801ms total)
T26A8 011:484 JLINK_ReadReg(R3)  returns 0x200008C0 (0000ms, 0801ms total)
T26A8 011:484 JLINK_ReadReg(R4)  returns 0x00000000 (0000ms, 0801ms total)
T26A8 011:484 JLINK_ReadReg(R5)  returns 0x2000065C (0001ms, 0802ms total)
T26A8 011:485 JLINK_ReadReg(R6)  returns 0x00000000 (0000ms, 0802ms total)
T26A8 011:485 JLINK_ReadReg(R7)  returns 0x00000000 (0000ms, 0802ms total)
T26A8 011:485 JLINK_ReadReg(R8)  returns 0x00000000 (0000ms, 0802ms total)
T26A8 011:485 JLINK_ReadReg(R9)  returns 0x20000160 (0000ms, 0802ms total)
T26A8 011:485 JLINK_ReadReg(R10)  returns 0x08003320 (0000ms, 0802ms total)
T26A8 011:485 JLINK_ReadReg(R11)  returns 0x00000000 (0000ms, 0802ms total)
T26A8 011:485 JLINK_ReadReg(R12)  returns 0x2000069C (0001ms, 0803ms total)
T26A8 011:486 JLINK_ReadReg(R13 (SP))  returns 0x20000CB8 (0000ms, 0803ms total)
T26A8 011:486 JLINK_ReadReg(R14)  returns 0x08002C97 (0000ms, 0803ms total)
T26A8 011:486 JLINK_ReadReg(R15 (PC))  returns 0x08002BCA (0000ms, 0803ms total)
T26A8 011:486 JLINK_ReadReg(XPSR)  returns 0x21000000 (0000ms, 0803ms total)
T26A8 011:486 JLINK_ReadReg(MSP)  returns 0x20000CB8 (0000ms, 0803ms total)
T26A8 011:486 JLINK_ReadReg(PSP)  returns 0x20000800 (0000ms, 0803ms total)
T26A8 011:486 JLINK_ReadReg(CFBP)  returns 0x00000000 (0001ms, 0804ms total)
T09E0 011:487 JLINK_ReadMem (0x20000CBC, 0x0004 Bytes, ...) -- CPU_ReadMem(64 bytes @ 0x20000C80) -- Updating C cache (64 bytes @ 0x20000C80) -- Read from C cache (4 bytes @ 0x20000CBC) - Data: 49 2D 00 08  returns 0x00 (0001ms, 0805ms total)
T09E0 011:488 JLINK_ReadMem (0x20000CB8, 0x0004 Bytes, ...) -- Read from C cache (4 bytes @ 0x20000CB8) - Data: 00 00 00 00  returns 0x00 (0001ms, 0806ms total)
T09E0 011:489 JLINK_ReadMemU32(0xE0001004, 0x0001 Items, ...) -- CPU_ReadMem(4 bytes @ 0xE0001004) - Data: E6 1B 00 00  returns 0x01 (0001ms, 0807ms total)
T09E0 011:494 JLINK_ReadMem (0x08002BCA, 0x0002 Bytes, ...) -- CPU_ReadMem(64 bytes @ 0x08002BC0) -- Updating C cache (64 bytes @ 0x08002BC0) -- Read from C cache (2 bytes @ 0x08002BCA) - Data: FF F7  returns 0x00 (0002ms, 0809ms total)
T09E0 011:496 JLINK_ReadMem (0x08002BCC, 0x0034 Bytes, ...) -- Read from C cache (52 bytes @ 0x08002BCC) - Data: B0 FC 4F F4 E1 30 00 F0 61 F9 4F F4 E1 30 00 F0 ...  returns 0x00 (0000ms, 0809ms total)
T09E0 011:496 JLINK_ReadMem (0x08002C00, 0x0008 Bytes, ...) -- CPU_ReadMem(64 bytes @ 0x08002C00) -- Updating C cache (64 bytes @ 0x08002C00) -- Read from C cache (8 bytes @ 0x08002C00) - Data: 0E 48 FF F7 9F FE 4F F4  returns 0x00 (0002ms, 0811ms total)
T26A8 012:356 JLINK_SetBPEx(Addr = 0x08002BCE, Type = 0xFFFFFFF2)  returns 0x00000003 (0001ms, 0812ms total)
T26A8 012:357 JLINK_Go() -- CPU_WriteMem(4 bytes @ 0xE0002000) -- CPU_WriteMem(4 bytes @ 0xE0002008) (0004ms, 0816ms total)
T26A8 012:462 JLINK_IsHalted()  returns TRUE (0004ms, 0820ms total)
T26A8 012:466 JLINK_Halt()  returns 0x00 (0000ms, 0816ms total)
T26A8 012:466 JLINK_IsHalted()  returns TRUE (0000ms, 0816ms total)
T26A8 012:466 JLINK_IsHalted()  returns TRUE (0000ms, 0816ms total)
T26A8 012:466 JLINK_IsHalted()  returns TRUE (0000ms, 0816ms total)
T26A8 012:466 JLINK_ReadReg(R15 (PC))  returns 0x08002BCE (0000ms, 0816ms total)
T26A8 012:466 JLINK_ReadReg(XPSR)  returns 0x21000000 (0001ms, 0817ms total)
T26A8 012:467 JLINK_ClrBPEx(BPHandle = 0x00000003)  returns 0x00 (0000ms, 0817ms total)
T26A8 012:467 JLINK_ReadMemU32(0xE000ED30, 0x0001 Items, ...) -- CPU_ReadMem(4 bytes @ 0xE000ED30) - Data: 03 00 00 00  returns 0x01 (0001ms, 0818ms total)
T26A8 012:468 JLINK_ReadMemU32(0xE0001028, 0x0001 Items, ...) -- CPU_ReadMem(4 bytes @ 0xE0001028) - Data: 00 00 00 00  returns 0x01 (0001ms, 0819ms total)
T26A8 012:469 JLINK_ReadMemU32(0xE0001038, 0x0001 Items, ...) -- CPU_ReadMem(4 bytes @ 0xE0001038) - Data: 00 02 00 00  returns 0x01 (0001ms, 0820ms total)
T26A8 012:470 JLINK_ReadMemU32(0xE0001048, 0x0001 Items, ...) -- CPU_ReadMem(4 bytes @ 0xE0001048) - Data: 00 00 00 00  returns 0x01 (0001ms, 0821ms total)
T26A8 012:472 JLINK_ReadMemU32(0xE0001058, 0x0001 Items, ...) -- CPU_ReadMem(4 bytes @ 0xE0001058) - Data: 00 00 00 00  returns 0x01 (0001ms, 0822ms total)
T26A8 012:473 JLINK_ReadReg(R0)  returns 0x00000500 (0000ms, 0822ms total)
T26A8 012:473 JLINK_ReadReg(R1)  returns 0x05FA0500 (0000ms, 0822ms total)
T26A8 012:473 JLINK_ReadReg(R2)  returns 0xE000ED0C (0000ms, 0822ms total)
T26A8 012:473 JLINK_ReadReg(R3)  returns 0x200008C0 (0000ms, 0822ms total)
T26A8 012:473 JLINK_ReadReg(R4)  returns 0x00000000 (0000ms, 0822ms total)
T26A8 012:474 JLINK_ReadReg(R5)  returns 0x2000065C (0000ms, 0823ms total)
T26A8 012:474 JLINK_ReadReg(R6)  returns 0x00000000 (0000ms, 0823ms total)
T26A8 012:474 JLINK_ReadReg(R7)  returns 0x00000000 (0000ms, 0823ms total)
T26A8 012:474 JLINK_ReadReg(R8)  returns 0x00000000 (0000ms, 0823ms total)
T26A8 012:474 JLINK_ReadReg(R9)  returns 0x20000160 (0000ms, 0823ms total)
T26A8 012:474 JLINK_ReadReg(R10)  returns 0x08003320 (0001ms, 0824ms total)
T26A8 012:475 JLINK_ReadReg(R11)  returns 0x00000000 (0000ms, 0824ms total)
T26A8 012:475 JLINK_ReadReg(R12)  returns 0x2000069C (0000ms, 0824ms total)
T26A8 012:475 JLINK_ReadReg(R13 (SP))  returns 0x20000CB8 (0000ms, 0824ms total)
T26A8 012:475 JLINK_ReadReg(R14)  returns 0x08002539 (0000ms, 0824ms total)
T26A8 012:475 JLINK_ReadReg(R15 (PC))  returns 0x08002BCE (0000ms, 0824ms total)
T26A8 012:475 JLINK_ReadReg(XPSR)  returns 0x21000000 (0000ms, 0824ms total)
T26A8 012:475 JLINK_ReadReg(MSP)  returns 0x20000CB8 (0001ms, 0825ms total)
T26A8 012:476 JLINK_ReadReg(PSP)  returns 0x20000800 (0000ms, 0825ms total)
T26A8 012:476 JLINK_ReadReg(CFBP)  returns 0x00000000 (0000ms, 0825ms total)
T09E0 012:476 JLINK_ReadMem (0x20000CBC, 0x0004 Bytes, ...) -- CPU_ReadMem(64 bytes @ 0x20000C80) -- Updating C cache (64 bytes @ 0x20000C80) -- Read from C cache (4 bytes @ 0x20000CBC) - Data: 49 2D 00 08  returns 0x00 (0002ms, 0827ms total)
T09E0 012:478 JLINK_ReadMem (0x20000CB8, 0x0004 Bytes, ...) -- Read from C cache (4 bytes @ 0x20000CB8) - Data: 00 00 00 00  returns 0x00 (0000ms, 0827ms total)
T09E0 012:478 JLINK_ReadMemU32(0xE0001004, 0x0001 Items, ...) -- CPU_ReadMem(4 bytes @ 0xE0001004) - Data: 0D 1C 00 00  returns 0x01 (0001ms, 0828ms total)
T09E0 012:489 JLINK_ReadMem (0x08002BCE, 0x0002 Bytes, ...) -- CPU_ReadMem(64 bytes @ 0x08002BC0) -- Updating C cache (64 bytes @ 0x08002BC0) -- Read from C cache (2 bytes @ 0x08002BCE) - Data: 4F F4  returns 0x00 (0002ms, 0830ms total)
T09E0 012:491 JLINK_ReadMem (0x08002BD0, 0x0030 Bytes, ...) -- Read from C cache (48 bytes @ 0x08002BD0) - Data: E1 30 00 F0 61 F9 4F F4 E1 30 00 F0 DF F8 4F F4 ...  returns 0x00 (0000ms, 0830ms total)
T09E0 012:491 JLINK_ReadMem (0x08002C00, 0x000C Bytes, ...) -- CPU_ReadMem(64 bytes @ 0x08002C00) -- Updating C cache (64 bytes @ 0x08002C00) -- Read from C cache (12 bytes @ 0x08002C00) - Data: 0E 48 FF F7 9F FE 4F F4 FA 70 00 F0  returns 0x00 (0002ms, 0832ms total)
T26A8 013:141 JLINK_Step() -- Read from C cache (2 bytes @ 0x08002BCE) -- Read from C cache (2 bytes @ 0x08002BD0) -- Simulated  returns 0x00 (0001ms, 0833ms total)
T26A8 013:142 JLINK_ReadReg(R15 (PC))  returns 0x08002BD2 (0001ms, 0834ms total)
T26A8 013:143 JLINK_ReadReg(XPSR)  returns 0x21000000 (0000ms, 0834ms total)
T26A8 013:143 JLINK_SetBPEx(Addr = 0x08002BD6, Type = 0xFFFFFFF2)  returns 0x00000004 (0000ms, 0834ms total)
T26A8 013:143 JLINK_Go() -- CPU_WriteMem(4 bytes @ 0xE0002000) -- CPU_WriteMem(4 bytes @ 0xE0002008) -- CPU_WriteMem(4 bytes @ 0xE0001004) (0005ms, 0839ms total)
T26A8 013:249 JLINK_IsHalted()  returns TRUE (0004ms, 0843ms total)
T26A8 013:253 JLINK_Halt()  returns 0x00 (0000ms, 0839ms total)
T26A8 013:253 JLINK_IsHalted()  returns TRUE (0000ms, 0839ms total)
T26A8 013:253 JLINK_IsHalted()  returns TRUE (0000ms, 0839ms total)
T26A8 013:253 JLINK_IsHalted()  returns TRUE (0000ms, 0839ms total)
T26A8 013:254 JLINK_ReadReg(R15 (PC))  returns 0x08002BD6 (0000ms, 0839ms total)
T26A8 013:254 JLINK_ReadReg(XPSR)  returns 0x01000000 (0000ms, 0839ms total)
T26A8 013:254 JLINK_ClrBPEx(BPHandle = 0x00000004)  returns 0x00 (0000ms, 0839ms total)
T26A8 013:254 JLINK_ReadMemU32(0xE000ED30, 0x0001 Items, ...) -- CPU_ReadMem(4 bytes @ 0xE000ED30) - Data: 03 00 00 00  returns 0x01 (0001ms, 0840ms total)
T26A8 013:255 JLINK_ReadMemU32(0xE0001028, 0x0001 Items, ...) -- CPU_ReadMem(4 bytes @ 0xE0001028) - Data: 00 00 00 00  returns 0x01 (0001ms, 0841ms total)
T26A8 013:256 JLINK_ReadMemU32(0xE0001038, 0x0001 Items, ...) -- CPU_ReadMem(4 bytes @ 0xE0001038) - Data: 00 02 00 00  returns 0x01 (0002ms, 0843ms total)
T26A8 013:258 JLINK_ReadMemU32(0xE0001048, 0x0001 Items, ...) -- CPU_ReadMem(4 bytes @ 0xE0001048) - Data: 00 00 00 00  returns 0x01 (0001ms, 0844ms total)
T26A8 013:259 JLINK_ReadMemU32(0xE0001058, 0x0001 Items, ...) -- CPU_ReadMem(4 bytes @ 0xE0001058) - Data: 00 00 00 00  returns 0x01 (0001ms, 0845ms total)
T26A8 013:260 JLINK_ReadReg(R0)  returns 0x40013800 (0000ms, 0845ms total)
T26A8 013:260 JLINK_ReadReg(R1)  returns 0x00000001 (0000ms, 0845ms total)
T26A8 013:260 JLINK_ReadReg(R2)  returns 0x0000200C (0000ms, 0845ms total)
T26A8 013:260 JLINK_ReadReg(R3)  returns 0x00000002 (0001ms, 0846ms total)
T26A8 013:261 JLINK_ReadReg(R4)  returns 0x00000000 (0000ms, 0846ms total)
T26A8 013:261 JLINK_ReadReg(R5)  returns 0x2000065C (0000ms, 0846ms total)
T26A8 013:261 JLINK_ReadReg(R6)  returns 0x00000000 (0000ms, 0846ms total)
T26A8 013:261 JLINK_ReadReg(R7)  returns 0x00000000 (0000ms, 0846ms total)
T26A8 013:261 JLINK_ReadReg(R8)  returns 0x00000000 (0000ms, 0846ms total)
T26A8 013:261 JLINK_ReadReg(R9)  returns 0x20000160 (0001ms, 0847ms total)
T26A8 013:262 JLINK_ReadReg(R10)  returns 0x08003320 (0000ms, 0847ms total)
T26A8 013:262 JLINK_ReadReg(R11)  returns 0x00000000 (0000ms, 0847ms total)
T26A8 013:262 JLINK_ReadReg(R12)  returns 0x00000400 (0000ms, 0847ms total)
T26A8 013:262 JLINK_ReadReg(R13 (SP))  returns 0x20000CB8 (0000ms, 0847ms total)
T26A8 013:262 JLINK_ReadReg(R14)  returns 0x08002F0B (0000ms, 0847ms total)
T26A8 013:262 JLINK_ReadReg(R15 (PC))  returns 0x08002BD6 (0001ms, 0848ms total)
T26A8 013:263 JLINK_ReadReg(XPSR)  returns 0x01000000 (0000ms, 0848ms total)
T26A8 013:263 JLINK_ReadReg(MSP)  returns 0x20000CB8 (0000ms, 0848ms total)
T26A8 013:263 JLINK_ReadReg(PSP)  returns 0x20000800 (0000ms, 0848ms total)
T26A8 013:263 JLINK_ReadReg(CFBP)  returns 0x00000000 (0000ms, 0848ms total)
T09E0 013:265 JLINK_ReadMem (0x20000CBC, 0x0004 Bytes, ...) -- CPU_ReadMem(64 bytes @ 0x20000C80) -- Updating C cache (64 bytes @ 0x20000C80) -- Read from C cache (4 bytes @ 0x20000CBC) - Data: 49 2D 00 08  returns 0x00 (0002ms, 0850ms total)
T09E0 013:267 JLINK_ReadMem (0x20000CB8, 0x0004 Bytes, ...) -- Read from C cache (4 bytes @ 0x20000CB8) - Data: 00 00 00 00  returns 0x00 (0000ms, 0850ms total)
T09E0 013:267 JLINK_ReadMemU32(0xE0001004, 0x0001 Items, ...) -- CPU_ReadMem(4 bytes @ 0xE0001004) - Data: 47 20 00 00  returns 0x01 (0001ms, 0851ms total)
T09E0 013:271 JLINK_ReadMem (0x08002BD6, 0x0002 Bytes, ...) -- CPU_ReadMem(64 bytes @ 0x08002BC0) -- Updating C cache (64 bytes @ 0x08002BC0) -- Read from C cache (2 bytes @ 0x08002BD6) - Data: 4F F4  returns 0x00 (0002ms, 0853ms total)
T09E0 013:273 JLINK_ReadMem (0x08002BD8, 0x0028 Bytes, ...) -- Read from C cache (40 bytes @ 0x08002BD8) - Data: E1 30 00 F0 DF F8 4F F4 E1 30 00 F0 19 F9 0A A1 ...  returns 0x00 (0001ms, 0854ms total)
T09E0 013:274 JLINK_ReadMem (0x08002C00, 0x0014 Bytes, ...) -- CPU_ReadMem(64 bytes @ 0x08002C00) -- Updating C cache (64 bytes @ 0x08002C00) -- Read from C cache (20 bytes @ 0x08002C00) - Data: 0E 48 FF F7 9F FE 4F F4 FA 70 00 F0 69 F8 10 BD ...  returns 0x00 (0001ms, 0855ms total)
T26A8 013:963 JLINK_Step() -- Read from C cache (2 bytes @ 0x08002BD6) -- Read from C cache (2 bytes @ 0x08002BD8) -- Simulated  returns 0x00 (0002ms, 0858ms total)
T26A8 013:965 JLINK_ReadReg(R15 (PC))  returns 0x08002BDA (0000ms, 0858ms total)
T26A8 013:965 JLINK_ReadReg(XPSR)  returns 0x01000000 (0000ms, 0858ms total)
T26A8 013:965 JLINK_SetBPEx(Addr = 0x08002BDE, Type = 0xFFFFFFF2)  returns 0x00000005 (0000ms, 0858ms total)
T26A8 013:965 JLINK_Go() -- CPU_WriteMem(4 bytes @ 0xE0002000) -- CPU_WriteMem(4 bytes @ 0xE0002008) -- CPU_WriteMem(4 bytes @ 0xE0001004) (0005ms, 0863ms total)
T26A8 014:071 JLINK_IsHalted()  returns TRUE (0004ms, 0867ms total)
T26A8 014:075 JLINK_Halt()  returns 0x00 (0000ms, 0863ms total)
T26A8 014:075 JLINK_IsHalted()  returns TRUE (0000ms, 0863ms total)
T26A8 014:075 JLINK_IsHalted()  returns TRUE (0000ms, 0863ms total)
T26A8 014:075 JLINK_IsHalted()  returns TRUE (0000ms, 0863ms total)
T26A8 014:075 JLINK_ReadReg(R15 (PC))  returns 0x08002BDE (0000ms, 0863ms total)
T26A8 014:075 JLINK_ReadReg(XPSR)  returns 0x01000000 (0001ms, 0864ms total)
T26A8 014:076 JLINK_ClrBPEx(BPHandle = 0x00000005)  returns 0x00 (0000ms, 0864ms total)
T26A8 014:076 JLINK_ReadMemU32(0xE000ED30, 0x0001 Items, ...) -- CPU_ReadMem(4 bytes @ 0xE000ED30) - Data: 03 00 00 00  returns 0x01 (0001ms, 0865ms total)
T26A8 014:077 JLINK_ReadMemU32(0xE0001028, 0x0001 Items, ...) -- CPU_ReadMem(4 bytes @ 0xE0001028) - Data: 00 00 00 00  returns 0x01 (0001ms, 0866ms total)
T26A8 014:078 JLINK_ReadMemU32(0xE0001038, 0x0001 Items, ...) -- CPU_ReadMem(4 bytes @ 0xE0001038) - Data: 00 02 00 00  returns 0x01 (0001ms, 0867ms total)
T26A8 014:079 JLINK_ReadMemU32(0xE0001048, 0x0001 Items, ...) -- CPU_ReadMem(4 bytes @ 0xE0001048) - Data: 00 00 00 00  returns 0x01 (0001ms, 0868ms total)
T26A8 014:080 JLINK_ReadMemU32(0xE0001058, 0x0001 Items, ...) -- CPU_ReadMem(4 bytes @ 0xE0001058) - Data: 00 00 00 00  returns 0x01 (0001ms, 0869ms total)
T26A8 014:081 JLINK_ReadReg(R0)  returns 0x40004400 (0000ms, 0869ms total)
T26A8 014:082 JLINK_ReadReg(R1)  returns 0x00000001 (0000ms, 0870ms total)
T26A8 014:082 JLINK_ReadReg(R2)  returns 0x0000200C (0000ms, 0870ms total)
T26A8 014:082 JLINK_ReadReg(R3)  returns 0x00000002 (0000ms, 0870ms total)
T26A8 014:082 JLINK_ReadReg(R4)  returns 0x00000000 (0000ms, 0870ms total)
T26A8 014:082 JLINK_ReadReg(R5)  returns 0x2000065C (0000ms, 0870ms total)
T26A8 014:082 JLINK_ReadReg(R6)  returns 0x00000000 (0000ms, 0870ms total)
T26A8 014:082 JLINK_ReadReg(R7)  returns 0x00000000 (0001ms, 0871ms total)
T26A8 014:083 JLINK_ReadReg(R8)  returns 0x00000000 (0000ms, 0871ms total)
T26A8 014:083 JLINK_ReadReg(R9)  returns 0x20000160 (0000ms, 0871ms total)
T26A8 014:083 JLINK_ReadReg(R10)  returns 0x08003320 (0000ms, 0871ms total)
T26A8 014:083 JLINK_ReadReg(R11)  returns 0x00000000 (0000ms, 0871ms total)
T26A8 014:083 JLINK_ReadReg(R12)  returns 0x00000008 (0000ms, 0871ms total)
T26A8 014:083 JLINK_ReadReg(R13 (SP))  returns 0x20000CB8 (0000ms, 0871ms total)
T26A8 014:083 JLINK_ReadReg(R14)  returns 0x08002E0B (0001ms, 0872ms total)
T26A8 014:084 JLINK_ReadReg(R15 (PC))  returns 0x08002BDE (0000ms, 0872ms total)
T26A8 014:084 JLINK_ReadReg(XPSR)  returns 0x01000000 (0000ms, 0872ms total)
T26A8 014:084 JLINK_ReadReg(MSP)  returns 0x20000CB8 (0000ms, 0872ms total)
T26A8 014:084 JLINK_ReadReg(PSP)  returns 0x20000800 (0000ms, 0872ms total)
T26A8 014:084 JLINK_ReadReg(CFBP)  returns 0x00000000 (0000ms, 0872ms total)
T09E0 014:085 JLINK_ReadMem (0x20000CBC, 0x0004 Bytes, ...) -- CPU_ReadMem(64 bytes @ 0x20000C80) -- Updating C cache (64 bytes @ 0x20000C80) -- Read from C cache (4 bytes @ 0x20000CBC) - Data: 49 2D 00 08  returns 0x00 (0001ms, 0873ms total)
T09E0 014:086 JLINK_ReadMem (0x20000CB8, 0x0004 Bytes, ...) -- Read from C cache (4 bytes @ 0x20000CB8) - Data: 00 00 00 00  returns 0x00 (0001ms, 0874ms total)
T09E0 014:087 JLINK_ReadMemU32(0xE0001004, 0x0001 Items, ...) -- CPU_ReadMem(4 bytes @ 0xE0001004) - Data: 5F 24 00 00  returns 0x01 (0001ms, 0875ms total)
T09E0 014:091 JLINK_ReadMem (0x08002BDE, 0x0002 Bytes, ...) -- CPU_ReadMem(64 bytes @ 0x08002BC0) -- Updating C cache (64 bytes @ 0x08002BC0) -- Read from C cache (2 bytes @ 0x08002BDE) - Data: 4F F4  returns 0x00 (0002ms, 0877ms total)
T09E0 014:093 JLINK_ReadMem (0x08002BE0, 0x0020 Bytes, ...) -- Read from C cache (32 bytes @ 0x08002BE0) - Data: E1 30 00 F0 19 F9 0A A1 0C 48 FF F7 AB FE 0C A1 ...  returns 0x00 (0000ms, 0877ms total)
T09E0 014:093 JLINK_ReadMem (0x08002C00, 0x001C Bytes, ...) -- CPU_ReadMem(64 bytes @ 0x08002C00) -- Updating C cache (64 bytes @ 0x08002C00) -- Read from C cache (28 bytes @ 0x08002C00) - Data: 0E 48 FF F7 9F FE 4F F4 FA 70 00 F0 69 F8 10 BD ...  returns 0x00 (0002ms, 0879ms total)
T26A8 014:656 JLINK_Step() -- Read from C cache (2 bytes @ 0x08002BDE) -- Read from C cache (2 bytes @ 0x08002BE0) -- Simulated  returns 0x00 (0001ms, 0880ms total)
T26A8 014:657 JLINK_ReadReg(R15 (PC))  returns 0x08002BE2 (0000ms, 0880ms total)
T26A8 014:657 JLINK_ReadReg(XPSR)  returns 0x01000000 (0001ms, 0881ms total)
T26A8 014:658 JLINK_SetBPEx(Addr = 0x08002BE6, Type = 0xFFFFFFF2)  returns 0x00000006 (0000ms, 0881ms total)
T26A8 014:658 JLINK_Go() -- CPU_WriteMem(4 bytes @ 0xE0002000) -- CPU_WriteMem(4 bytes @ 0xE0002008) -- CPU_WriteMem(4 bytes @ 0xE0001004) (0004ms, 0885ms total)
T26A8 014:763 JLINK_IsHalted()  returns TRUE (0004ms, 0889ms total)
T26A8 014:767 JLINK_Halt()  returns 0x00 (0000ms, 0885ms total)
T26A8 014:767 JLINK_IsHalted()  returns TRUE (0000ms, 0885ms total)
T26A8 014:767 JLINK_IsHalted()  returns TRUE (0001ms, 0886ms total)
T26A8 014:768 JLINK_IsHalted()  returns TRUE (0000ms, 0885ms total)
T26A8 014:768 JLINK_ReadReg(R15 (PC))  returns 0x08002BE6 (0000ms, 0885ms total)
T26A8 014:768 JLINK_ReadReg(XPSR)  returns 0x01000000 (0000ms, 0885ms total)
T26A8 014:768 JLINK_ClrBPEx(BPHandle = 0x00000006)  returns 0x00 (0000ms, 0885ms total)
T26A8 014:768 JLINK_ReadMemU32(0xE000ED30, 0x0001 Items, ...) -- CPU_ReadMem(4 bytes @ 0xE000ED30) - Data: 03 00 00 00  returns 0x01 (0002ms, 0887ms total)
T26A8 014:770 JLINK_ReadMemU32(0xE0001028, 0x0001 Items, ...) -- CPU_ReadMem(4 bytes @ 0xE0001028) - Data: 00 00 00 00  returns 0x01 (0001ms, 0888ms total)
T26A8 014:771 JLINK_ReadMemU32(0xE0001038, 0x0001 Items, ...) -- CPU_ReadMem(4 bytes @ 0xE0001038) - Data: 00 02 00 00  returns 0x01 (0001ms, 0889ms total)
T26A8 014:772 JLINK_ReadMemU32(0xE0001048, 0x0001 Items, ...) -- CPU_ReadMem(4 bytes @ 0xE0001048) - Data: 00 00 00 00  returns 0x01 (0001ms, 0890ms total)
T26A8 014:773 JLINK_ReadMemU32(0xE0001058, 0x0001 Items, ...) -- CPU_ReadMem(4 bytes @ 0xE0001058) - Data: 00 00 00 00  returns 0x01 (0001ms, 0891ms total)
T26A8 014:774 JLINK_ReadReg(R0)  returns 0x40004800 (0000ms, 0891ms total)
T26A8 014:774 JLINK_ReadReg(R1)  returns 0x00000001 (0001ms, 0892ms total)
T26A8 014:775 JLINK_ReadReg(R2)  returns 0x0000200C (0000ms, 0892ms total)
T26A8 014:775 JLINK_ReadReg(R3)  returns 0x00000002 (0000ms, 0892ms total)
T26A8 014:775 JLINK_ReadReg(R4)  returns 0x00000000 (0000ms, 0892ms total)
T26A8 014:775 JLINK_ReadReg(R5)  returns 0x2000065C (0000ms, 0892ms total)
T26A8 014:775 JLINK_ReadReg(R6)  returns 0x00000000 (0001ms, 0893ms total)
T26A8 014:776 JLINK_ReadReg(R7)  returns 0x00000000 (0000ms, 0893ms total)
T26A8 014:776 JLINK_ReadReg(R8)  returns 0x00000000 (0000ms, 0893ms total)
T26A8 014:776 JLINK_ReadReg(R9)  returns 0x20000160 (0000ms, 0893ms total)
T26A8 014:776 JLINK_ReadReg(R10)  returns 0x08003320 (0001ms, 0894ms total)
T26A8 014:777 JLINK_ReadReg(R11)  returns 0x00000000 (0000ms, 0894ms total)
T26A8 014:777 JLINK_ReadReg(R12)  returns 0x00000800 (0000ms, 0894ms total)
T26A8 014:777 JLINK_ReadReg(R13 (SP))  returns 0x20000CB8 (0000ms, 0894ms total)
T26A8 014:777 JLINK_ReadReg(R14)  returns 0x08002E8B (0000ms, 0894ms total)
T26A8 014:777 JLINK_ReadReg(R15 (PC))  returns 0x08002BE6 (0001ms, 0895ms total)
T26A8 014:778 JLINK_ReadReg(XPSR)  returns 0x01000000 (0000ms, 0895ms total)
T26A8 014:778 JLINK_ReadReg(MSP)  returns 0x20000CB8 (0000ms, 0895ms total)
T26A8 014:778 JLINK_ReadReg(PSP)  returns 0x20000800 (0000ms, 0895ms total)
T26A8 014:778 JLINK_ReadReg(CFBP)  returns 0x00000000 (0000ms, 0895ms total)
T09E0 014:780 JLINK_ReadMem (0x20000CBC, 0x0004 Bytes, ...) -- CPU_ReadMem(64 bytes @ 0x20000C80) -- Updating C cache (64 bytes @ 0x20000C80) -- Read from C cache (4 bytes @ 0x20000CBC) - Data: 49 2D 00 08  returns 0x00 (0002ms, 0897ms total)
T09E0 014:782 JLINK_ReadMem (0x20000CB8, 0x0004 Bytes, ...) -- Read from C cache (4 bytes @ 0x20000CB8) - Data: 00 00 00 00  returns 0x00 (0000ms, 0897ms total)
T09E0 014:782 JLINK_ReadMemU32(0xE0001004, 0x0001 Items, ...) -- CPU_ReadMem(4 bytes @ 0xE0001004) - Data: A5 28 00 00  returns 0x01 (0001ms, 0898ms total)
T09E0 014:786 JLINK_ReadMem (0x08002BE6, 0x0002 Bytes, ...) -- CPU_ReadMem(64 bytes @ 0x08002BC0) -- Updating C cache (64 bytes @ 0x08002BC0) -- Read from C cache (2 bytes @ 0x08002BE6) - Data: 0A A1  returns 0x00 (0002ms, 0900ms total)
T09E0 014:788 JLINK_ReadMem (0x08002BE8, 0x0018 Bytes, ...) -- Read from C cache (24 bytes @ 0x08002BE8) - Data: 0C 48 FF F7 AB FE 0C A1 0E 48 FF F7 A7 FE 0E A1 ...  returns 0x00 (0001ms, 0901ms total)
T09E0 014:789 JLINK_ReadMem (0x08002C00, 0x0024 Bytes, ...) -- CPU_ReadMem(64 bytes @ 0x08002C00) -- Updating C cache (64 bytes @ 0x08002C00) -- Read from C cache (36 bytes @ 0x08002C00) - Data: 0E 48 FF F7 9F FE 4F F4 FA 70 00 F0 69 F8 10 BD ...  returns 0x00 (0001ms, 0902ms total)
T26A8 015:650 JLINK_Step() -- Read from C cache (2 bytes @ 0x08002BE6) -- Simulated  returns 0x00 (0002ms, 0904ms total)
T26A8 015:652 JLINK_ReadReg(R15 (PC))  returns 0x08002BE8 (0000ms, 0904ms total)
T26A8 015:652 JLINK_ReadReg(XPSR)  returns 0x01000000 (0000ms, 0904ms total)
T26A8 015:652 JLINK_Step() -- Read from C cache (2 bytes @ 0x08002BE8) -- Read from C cache (4 bytes @ 0x08002C1C) -- Simulated  returns 0x00 (0001ms, 0905ms total)
T26A8 015:653 JLINK_ReadReg(R15 (PC))  returns 0x08002BEA (0000ms, 0905ms total)
T26A8 015:653 JLINK_ReadReg(XPSR)  returns 0x01000000 (0000ms, 0905ms total)
T26A8 015:653 JLINK_SetBPEx(Addr = 0x08002BEE, Type = 0xFFFFFFF2)  returns 0x00000007 (0001ms, 0906ms total)
T26A8 015:654 JLINK_Go() -- CPU_WriteMem(4 bytes @ 0xE0002000) -- CPU_WriteMem(4 bytes @ 0xE0002008) -- CPU_WriteMem(4 bytes @ 0xE0001004) (0005ms, 0911ms total)
T26A8 015:760 JLINK_IsHalted()  returns TRUE (0004ms, 0915ms total)
T26A8 015:764 JLINK_Halt()  returns 0x00 (0000ms, 0911ms total)
T26A8 015:764 JLINK_IsHalted()  returns TRUE (0000ms, 0911ms total)
T26A8 015:764 JLINK_IsHalted()  returns TRUE (0000ms, 0911ms total)
T26A8 015:764 JLINK_IsHalted()  returns TRUE (0001ms, 0912ms total)
T26A8 015:765 JLINK_ReadReg(R15 (PC))  returns 0x08002BEE (0000ms, 0911ms total)
T26A8 015:765 JLINK_ReadReg(XPSR)  returns 0x61000000 (0000ms, 0911ms total)
T26A8 015:765 JLINK_ClrBPEx(BPHandle = 0x00000007)  returns 0x00 (0000ms, 0911ms total)
T26A8 015:765 JLINK_ReadMemU32(0xE000ED30, 0x0001 Items, ...) -- CPU_ReadMem(4 bytes @ 0xE000ED30) - Data: 03 00 00 00  returns 0x01 (0001ms, 0912ms total)
T26A8 015:766 JLINK_ReadMemU32(0xE0001028, 0x0001 Items, ...) -- CPU_ReadMem(4 bytes @ 0xE0001028) - Data: 00 00 00 00  returns 0x01 (0001ms, 0913ms total)
T26A8 015:767 JLINK_ReadMemU32(0xE0001038, 0x0001 Items, ...) -- CPU_ReadMem(4 bytes @ 0xE0001038) - Data: 00 02 00 00  returns 0x01 (0001ms, 0914ms total)
T26A8 015:769 JLINK_ReadMemU32(0xE0001048, 0x0001 Items, ...) -- CPU_ReadMem(4 bytes @ 0xE0001048) - Data: 00 00 00 00  returns 0x01 (0001ms, 0916ms total)
T26A8 015:770 JLINK_ReadMemU32(0xE0001058, 0x0001 Items, ...) -- CPU_ReadMem(4 bytes @ 0xE0001058) - Data: 00 00 00 00  returns 0x01 (0001ms, 0917ms total)
T26A8 015:771 JLINK_ReadReg(R0)  returns 0x0000000B (0000ms, 0917ms total)
T26A8 015:771 JLINK_ReadReg(R1)  returns 0x00000000 (0000ms, 0917ms total)
T26A8 015:771 JLINK_ReadReg(R2)  returns 0x0000000B (0000ms, 0917ms total)
T26A8 015:771 JLINK_ReadReg(R3)  returns 0x20000B9C (0000ms, 0917ms total)
T26A8 015:771 JLINK_ReadReg(R4)  returns 0x00000000 (0000ms, 0917ms total)
T26A8 015:772 JLINK_ReadReg(R5)  returns 0x2000065C (0000ms, 0918ms total)
T26A8 015:772 JLINK_ReadReg(R6)  returns 0x00000000 (0000ms, 0918ms total)
T26A8 015:772 JLINK_ReadReg(R7)  returns 0x00000000 (0000ms, 0918ms total)
T26A8 015:772 JLINK_ReadReg(R8)  returns 0x00000000 (0000ms, 0918ms total)
T26A8 015:772 JLINK_ReadReg(R9)  returns 0x20000160 (0000ms, 0918ms total)
T26A8 015:772 JLINK_ReadReg(R10)  returns 0x08003320 (0000ms, 0918ms total)
T26A8 015:772 JLINK_ReadReg(R11)  returns 0x00000000 (0001ms, 0919ms total)
T26A8 015:773 JLINK_ReadReg(R12)  returns 0x20000054 (0000ms, 0919ms total)
T26A8 015:773 JLINK_ReadReg(R13 (SP))  returns 0x20000CB8 (0000ms, 0919ms total)
T26A8 015:773 JLINK_ReadReg(R14)  returns 0x0800296D (0000ms, 0919ms total)
T26A8 015:773 JLINK_ReadReg(R15 (PC))  returns 0x08002BEE (0000ms, 0919ms total)
T26A8 015:773 JLINK_ReadReg(XPSR)  returns 0x61000000 (0000ms, 0919ms total)
T26A8 015:773 JLINK_ReadReg(MSP)  returns 0x20000CB8 (0001ms, 0920ms total)
T26A8 015:774 JLINK_ReadReg(PSP)  returns 0x20000800 (0000ms, 0920ms total)
T26A8 015:774 JLINK_ReadReg(CFBP)  returns 0x00000000 (0000ms, 0920ms total)
T09E0 015:774 JLINK_ReadMem (0x20000CBC, 0x0004 Bytes, ...) -- CPU_ReadMem(64 bytes @ 0x20000C80) -- Updating C cache (64 bytes @ 0x20000C80) -- Read from C cache (4 bytes @ 0x20000CBC) - Data: 49 2D 00 08  returns 0x00 (0002ms, 0922ms total)
T09E0 015:776 JLINK_ReadMem (0x20000CB8, 0x0004 Bytes, ...) -- Read from C cache (4 bytes @ 0x20000CB8) - Data: 00 00 00 00  returns 0x00 (0000ms, 0922ms total)
T09E0 015:776 JLINK_ReadMemU32(0xE0001004, 0x0001 Items, ...) -- CPU_ReadMem(4 bytes @ 0xE0001004) - Data: 74 2D 00 00  returns 0x01 (0001ms, 0923ms total)
T09E0 015:780 JLINK_ReadMem (0x08002BEE, 0x0002 Bytes, ...) -- CPU_ReadMem(64 bytes @ 0x08002BC0) -- Updating C cache (64 bytes @ 0x08002BC0) -- Read from C cache (2 bytes @ 0x08002BEE) - Data: 0C A1  returns 0x00 (0002ms, 0925ms total)
T09E0 015:782 JLINK_ReadMem (0x08002BF0, 0x0010 Bytes, ...) -- Read from C cache (16 bytes @ 0x08002BF0) - Data: 0E 48 FF F7 A7 FE 0E A1 10 48 FF F7 A3 FE 10 A1  returns 0x00 (0000ms, 0925ms total)
T09E0 015:782 JLINK_ReadMem (0x08002C00, 0x002C Bytes, ...) -- CPU_ReadMem(64 bytes @ 0x08002C00) -- Updating C cache (64 bytes @ 0x08002C00) -- Read from C cache (44 bytes @ 0x08002C00) - Data: 0E 48 FF F7 9F FE 4F F4 FA 70 00 F0 69 F8 10 BD ...  returns 0x00 (0002ms, 0927ms total)
T09E0 020:467 JLINK_ReadMem (0x08002BDE, 0x0002 Bytes, ...) -- Read from C cache (2 bytes @ 0x08002BDE) - Data: 4F F4  returns 0x00 (0001ms, 0928ms total)
T09E0 020:468 JLINK_ReadMem (0x08002BE0, 0x0020 Bytes, ...) -- Read from C cache (32 bytes @ 0x08002BE0) - Data: E1 30 00 F0 19 F9 0A A1 0C 48 FF F7 AB FE 0C A1 ...  returns 0x00 (0000ms, 0928ms total)
T09E0 020:468 JLINK_ReadMem (0x08002C00, 0x001C Bytes, ...) -- Read from C cache (28 bytes @ 0x08002C00) - Data: 0E 48 FF F7 9F FE 4F F4 FA 70 00 F0 69 F8 10 BD ...  returns 0x00 (0000ms, 0928ms total)
T26A8 023:780 JLINK_Step() -- Read from C cache (2 bytes @ 0x08002BEE) -- Simulated  returns 0x00 (0001ms, 0930ms total)
T26A8 023:781 JLINK_ReadReg(R15 (PC))  returns 0x08002BF0 (0001ms, 0931ms total)
T26A8 023:782 JLINK_ReadReg(XPSR)  returns 0x61000000 (0000ms, 0931ms total)
T26A8 023:782 JLINK_Step() -- Read from C cache (2 bytes @ 0x08002BF0) -- Read from C cache (4 bytes @ 0x08002C2C) -- Simulated  returns 0x00 (0000ms, 0931ms total)
T26A8 023:782 JLINK_ReadReg(R15 (PC))  returns 0x08002BF2 (0000ms, 0931ms total)
T26A8 023:782 JLINK_ReadReg(XPSR)  returns 0x61000000 (0000ms, 0931ms total)
T26A8 023:782 JLINK_SetBPEx(Addr = 0x08002BF6, Type = 0xFFFFFFF2)  returns 0x00000008 (0001ms, 0932ms total)
T26A8 023:783 JLINK_Go() -- CPU_WriteMem(4 bytes @ 0xE0002000) -- CPU_WriteMem(4 bytes @ 0xE0002008) -- CPU_WriteMem(4 bytes @ 0xE0001004) (0004ms, 0936ms total)
T26A8 023:888 JLINK_IsHalted()  returns TRUE (0003ms, 0939ms total)
T26A8 023:891 JLINK_Halt()  returns 0x00 (0001ms, 0937ms total)
T26A8 023:892 JLINK_IsHalted()  returns TRUE (0000ms, 0937ms total)
T26A8 023:892 JLINK_IsHalted()  returns TRUE (0000ms, 0937ms total)
T26A8 023:892 JLINK_IsHalted()  returns TRUE (0000ms, 0937ms total)
T26A8 023:892 JLINK_ReadReg(R15 (PC))  returns 0x08002BF6 (0000ms, 0937ms total)
T26A8 023:892 JLINK_ReadReg(XPSR)  returns 0x61000000 (0000ms, 0937ms total)
T26A8 023:892 JLINK_ClrBPEx(BPHandle = 0x00000008)  returns 0x00 (0001ms, 0938ms total)
T26A8 023:893 JLINK_ReadMemU32(0xE000ED30, 0x0001 Items, ...) -- CPU_ReadMem(4 bytes @ 0xE000ED30) - Data: 03 00 00 00  returns 0x01 (0001ms, 0939ms total)
T26A8 023:894 JLINK_ReadMemU32(0xE0001028, 0x0001 Items, ...) -- CPU_ReadMem(4 bytes @ 0xE0001028) - Data: 00 00 00 00  returns 0x01 (0001ms, 0940ms total)
T26A8 023:895 JLINK_ReadMemU32(0xE0001038, 0x0001 Items, ...) -- CPU_ReadMem(4 bytes @ 0xE0001038) - Data: 00 02 00 00  returns 0x01 (0001ms, 0941ms total)
